T51F8 000:004.695   SEGGER J-Link V8.60 Log File
T51F8 000:004.780   DLL Compiled: Aug 13 2025 12:04:02
T51F8 000:004.784   Logging started @ 2026-07-17 00:38
T51F8 000:004.787   Process: E:\keil5\core\UV4\UV4.exe
T51F8 000:004.793 - 4.790ms 
T51F8 000:004.800 JLINK_SetWarnOutHandler(...)
T51F8 000:004.804 - 0.004ms 
T51F8 000:004.808 JLINK_OpenEx(...)
T51F8 000:007.796   Firmware: J-Link V9 compiled Dec 13 2022 11:14:50
T51F8 000:008.475   Firmware: J-Link V9 compiled Dec 13 2022 11:14:50
T51F8 000:008.571   Decompressing FW timestamp took 79 us
T51F8 000:014.641   Hardware: V9.70
T51F8 000:014.654   S/N: 69730341
T51F8 000:014.659   OEM: SEGGER
T51F8 000:014.663   Feature(s): RDI, GDB, FlashDL, FlashBP, JFlash
T51F8 000:015.769   Bootloader: (FW returned invalid version)
T51F8 000:016.815   TELNET listener socket opened on port 19021
T51F8 000:016.874   WEBSRV WEBSRV_Init(): Starting webserver thread(s)
T51F8 000:016.965   WEBSRV Webserver running on local port 19080
T51F8 000:017.009   Looking for J-Link GUI Server exe at: E:\keil5\core\ARM\Segger\JLinkGUIServer.exe
T51F8 000:017.050   Looking for J-Link GUI Server exe at: E:\J_Link_New\JLink_V860\JLinkGUIServer.exe
T51F8 000:017.057   Forking J-Link GUI Server: E:\J_Link_New\JLink_V860\JLinkGUIServer.exe
T51F8 000:028.020   J-Link GUI Server info: "J-Link GUI server V8.60 "
T51F8 000:029.097 - 24.285ms returns "O.K."
T51F8 000:029.120 JLINK_GetEmuCaps()
T51F8 000:029.126 - 0.004ms returns 0xB9FF7BBF
T51F8 000:029.131 JLINK_TIF_GetAvailable(...)
T51F8 000:029.372 - 0.240ms 
T51F8 000:029.383 JLINK_SetErrorOutHandler(...)
T51F8 000:029.386 - 0.003ms 
T51F8 000:029.400 JLINK_ExecCommand("ProjectFile = "C:\Users\PEN\Desktop\RC_ONE_AREA\RED7.5\RED_NEW\robocon_main\robocon_main\MDK-ARM\JLinkSettings.ini"", ...). 
T51F8 000:038.186   Ref file found at: E:\keil5\core\ARM\Segger\JLinkDevices.ref
T51F8 000:038.248   REF file references invalid XML file: E:\J_Link_New\JLink_V860\JLinkDevices.xml
T51F8 000:039.078 - 9.678ms returns 0x00
T51F8 000:039.115 JLINK_ExecCommand("Device = STM32H723VGTx", ...). 
T51F8 000:039.999   Flash bank @ 0x08000000: SFL: Parsing sectorization info from ELF file
T51F8 000:040.008     FlashDevice.SectorInfo[0]: .SectorSize = 0x00020000, .SectorStartAddr = 0x00000000
T51F8 000:040.013   FlashBank @0x08000000: Sectorization info from SFL ELF file ignored because sectorization override from DLL / XML file is active.
T51F8 000:040.319   Flash bank @ 0x90000000: SFL: Parsing sectorization info from ELF file
T51F8 000:040.326     FlashDevice.SectorInfo[0]: .SectorSize = 0x00010000, .SectorStartAddr = 0x00000000
T51F8 000:043.203   Device "STM32H723VG" selected.
T51F8 000:043.350 - 4.230ms returns 0x00
T51F8 000:043.356 JLINK_ExecCommand("DisableConnectionTimeout", ...). 
T51F8 000:043.362   ERROR: Unknown command
T51F8 000:043.366 - 0.006ms returns 0x01
T51F8 000:043.371 JLINK_GetHardwareVersion()
T51F8 000:043.375 - 0.003ms returns 97000
T51F8 000:043.378 JLINK_GetDLLVersion()
T51F8 000:043.381 - 0.002ms returns 86000
T51F8 000:043.384 JLINK_GetOEMString(...)
T51F8 000:043.388 JLINK_GetFirmwareString(...)
T51F8 000:043.391 - 0.003ms 
T51F8 000:043.405 JLINK_GetDLLVersion()
T51F8 000:043.408 - 0.002ms returns 86000
T51F8 000:043.412 JLINK_GetCompileDateTime()
T51F8 000:043.414 - 0.002ms 
T51F8 000:043.420 JLINK_GetFirmwareString(...)
T51F8 000:043.423 - 0.002ms 
T51F8 000:043.432 JLINK_GetHardwareVersion()
T51F8 000:043.435 - 0.003ms returns 97000
T51F8 000:043.441 JLINK_GetSN()
T51F8 000:043.444 - 0.003ms returns 69730341
T51F8 000:043.449 JLINK_GetOEMString(...)
T51F8 000:043.458 JLINK_TIF_Select(JLINKARM_TIF_SWD)
T51F8 000:044.132 - 0.674ms returns 0x00
T51F8 000:044.137 JLINK_HasError()
T51F8 000:044.145 JLINK_SetSpeed(5000)
T51F8 000:044.291 - 0.146ms 
T51F8 000:044.296 JLINK_GetId()
T51F8 000:044.456   ConfigTargetSettings() start
T51F8 000:044.462    J-Link Script File: Executing ConfigTargetSettings()
T51F8 000:044.478   ConfigTargetSettings() end - Took 14us
T51F8 000:044.485   InitTarget() start
T51F8 000:044.508    J-Link Script File: Executing InitTarget()
T51F8 000:044.636   SWD selected. Executing JTAG -> SWD switching sequence.
T51F8 000:046.203   DAP initialized successfully.
T51F8 000:053.058   InitTarget() end - Took 8.54ms
T51F8 000:053.539   Found SW-DP with ID 0x6BA02477
T51F8 000:054.509   Old FW that does not support reading DPIDR via DAP jobs
T51F8 000:055.130   DPv0 detected
T51F8 000:055.173   CoreSight SoC-400 or earlier
T51F8 000:055.223   Scanning AP map to find all available APs
T51F8 000:056.057   AP[3]: Stopped AP scan as end of AP map has been reached
T51F8 000:056.064   AP[0]: AHB-AP (IDR: 0x84770001, ADDR: 0x00000000)
T51F8 000:056.071   AP[1]: AHB-AP (IDR: 0x84770001, ADDR: 0x01000000)
T51F8 000:056.077   AP[2]: APB-AP (IDR: 0x54770002, ADDR: 0x02000000)
T51F8 000:056.084   Iterating through AP map to find AHB-AP to use
T51F8 000:056.789   AP[0]: Core found
T51F8 000:056.805   AP[0]: AHB-AP ROM base: 0xE00FE000
T51F8 000:057.203   CPUID register: 0x411FC272. Implementer code: 0x41 (ARM)
T51F8 000:057.549   Cache: L1 I/D-cache present
T51F8 000:057.558   Found Cortex-M7 r1p2, Little endian.
T51F8 000:057.779   -- Max. mem block: 0x00010BB0
T51F8 000:058.242   CPU_ReadMem(4 bytes @ 0xE000EDF0)
T51F8 000:058.449   CPU_ReadMem(4 bytes @ 0xE0002000)
T51F8 000:058.650   FPUnit: 8 code (BP) slots and 0 literal slots
T51F8 000:058.655   CPU_ReadMem(4 bytes @ 0xE000EDFC)
T51F8 000:058.869   CPU_WriteMem(4 bytes @ 0xE000EDFC)
T51F8 000:059.071   CPU_ReadMem(4 bytes @ 0xE0001000)
T51F8 000:059.269   CPU_WriteMem(4 bytes @ 0xE0001000)
T51F8 000:059.465   CPU_ReadMem(4 bytes @ 0xE000ED88)
T51F8 000:059.691   CPU_WriteMem(4 bytes @ 0xE000ED88)
T51F8 000:059.910   CPU_ReadMem(4 bytes @ 0xE000ED88)
T51F8 000:060.099   CPU_WriteMem(4 bytes @ 0xE000ED88)
T51F8 000:060.298   CoreSight components:
T51F8 000:060.305   ROMTbl[0] @ E00FE000
T51F8 000:060.310   CPU_ReadMem(64 bytes @ 0xE00FE000)
T51F8 000:060.798   CPU_ReadMem(32 bytes @ 0xE00FFFE0)
T51F8 000:061.261   [0][0]: E00FF000 CID B105100D PID 000BB4C7 ROM Table
T51F8 000:061.290   ROMTbl[1] @ E00FF000
T51F8 000:061.294   CPU_ReadMem(64 bytes @ 0xE00FF000)
T51F8 000:061.773   CPU_ReadMem(32 bytes @ 0xE000EFE0)
T51F8 000:062.121   [1][0]: E000E000 CID B105E00D PID 000BB00C SCS-M7
T51F8 000:062.126   CPU_ReadMem(32 bytes @ 0xE0001FE0)
T51F8 000:062.446   [1][1]: E0001000 CID B105E00D PID 000BB002 DWT
T51F8 000:062.451   CPU_ReadMem(32 bytes @ 0xE0002FE0)
T51F8 000:062.858   [1][2]: E0002000 CID B105E00D PID 000BB00E FPB-M7
T51F8 000:062.891   CPU_ReadMem(32 bytes @ 0xE0000FE0)
T51F8 000:063.356   [1][3]: E0000000 CID B105E00D PID 000BB001 ITM
T51F8 000:063.388   CPU_ReadMem(32 bytes @ 0xE0041FE0)
T51F8 000:063.788   [0][1]: E0041000 CID B105900D PID 001BB975 ETM-M7
T51F8 000:063.793   CPU_ReadMem(32 bytes @ 0xE0043FE0)
T51F8 000:064.145   [0][2]: E0043000 CID B105900D PID 004BB906 CTI
T51F8 000:064.150   CPU_WriteMem(4 bytes @ 0xE000ED84)
T51F8 000:064.390   CPU_ReadMem(4 bytes @ 0xE000ED80)
T51F8 000:064.730   I-Cache L1: 32 KB, 512 Sets, 32 Bytes/Line, 2-Way
T51F8 000:064.781   CPU_WriteMem(4 bytes @ 0xE000ED84)
T51F8 000:065.048   CPU_ReadMem(4 bytes @ 0xE000ED80)
T51F8 000:065.256   D-Cache L1: 32 KB, 256 Sets, 32 Bytes/Line, 4-Way
T51F8 000:065.464 - 21.167ms returns 0x6BA02477
T51F8 000:065.505 JLINK_GetDLLVersion()
T51F8 000:065.517 - 0.012ms returns 86000
T51F8 000:065.581 JLINK_CORE_GetFound()
T51F8 000:065.585 - 0.003ms returns 0xE0100FF
T51F8 000:065.589 JLINK_GetDebugInfo(0x100 = JLINKARM_ROM_TABLE_ADDR_INDEX)
T51F8 000:065.592   Value=0xE00FE000
T51F8 000:065.597 - 0.008ms returns 0
T51F8 000:065.604 JLINK_GetDebugInfo(0x100 = JLINKARM_ROM_TABLE_ADDR_INDEX)
T51F8 000:065.607   Value=0xE00FE000
T51F8 000:065.612 - 0.007ms returns 0
T51F8 000:065.616 JLINK_GetDebugInfo(0x101 = JLINKARM_DEBUG_INFO_ETM_ADDR_INDEX)
T51F8 000:065.619   Value=0xE0041000
T51F8 000:065.623 - 0.007ms returns 0
T51F8 000:065.627 JLINK_ReadMemEx(0xE0041FD0, 0x20 Bytes, Flags = 0x02000004)
T51F8 000:065.641   CPU_ReadMem(32 bytes @ 0xE0041FD0)
T51F8 000:066.034   Data:  04 00 00 00 00 00 00 00 00 00 00 00 00 00 00 00 ...
T51F8 000:066.084 - 0.456ms returns 32 (0x20)
T51F8 000:066.090 JLINK_GetDebugInfo(0x102 = JLINKARM_DEBUG_INFO_MTB_ADDR_INDEX)
T51F8 000:066.093   Value=0x00000000
T51F8 000:066.098 - 0.008ms returns 0
T51F8 000:066.102 JLINK_GetDebugInfo(0x103 = JLINKARM_DEBUG_INFO_TPIU_ADDR_INDEX)
T51F8 000:066.105   Value=0xE00F5000
T51F8 000:066.109 - 0.007ms returns 0
T51F8 000:066.113 JLINK_GetDebugInfo(0x104 = JLINKARM_DEBUG_INFO_ITM_ADDR_INDEX)
T51F8 000:066.116   Value=0xE0000000
T51F8 000:066.121 - 0.007ms returns 0
T51F8 000:066.125 JLINK_GetDebugInfo(0x105 = JLINKARM_DEBUG_INFO_DWT_ADDR_INDEX)
T51F8 000:066.128   Value=0xE0001000
T51F8 000:066.133 - 0.007ms returns 0
T51F8 000:066.136 JLINK_GetDebugInfo(0x106 = JLINKARM_DEBUG_INFO_FPB_ADDR_INDEX)
T51F8 000:066.139   Value=0xE0002000
T51F8 000:066.144 - 0.007ms returns 0
T51F8 000:066.148 JLINK_GetDebugInfo(0x107 = JLINKARM_DEBUG_INFO_NVIC_ADDR_INDEX)
T51F8 000:066.151   Value=0xE000E000
T51F8 000:066.155 - 0.007ms returns 0
T51F8 000:066.159 JLINK_GetDebugInfo(0x10C = JLINKARM_DEBUG_INFO_DBG_ADDR_INDEX)
T51F8 000:066.162   Value=0xE000EDF0
T51F8 000:066.167 - 0.007ms returns 0
T51F8 000:066.171 JLINK_GetDebugInfo(0x01 = Unknown)
T51F8 000:066.174   Value=0x00000001
T51F8 000:066.178 - 0.007ms returns 0
T51F8 000:066.183 JLINK_ReadMemU32(0xE000ED00, 0x1 Items)
T51F8 000:066.189   CPU_ReadMem(4 bytes @ 0xE000ED00)
T51F8 000:066.397   Data:  72 C2 1F 41
T51F8 000:066.402   Debug reg: CPUID
T51F8 000:066.407 - 0.224ms returns 1 (0x1)
T51F8 000:066.411 JLINK_GetDebugInfo(0x10F = JLINKARM_DEBUG_INFO_HAS_CORTEX_M_SECURITY_EXT_INDEX)
T51F8 000:066.414   Value=0x00000000
T51F8 000:066.419 - 0.008ms returns 0
T51F8 000:066.423 JLINK_HasError()
T51F8 000:066.427 JLINK_SetResetType(JLINKARM_CM3_RESET_TYPE_NORMAL)
T51F8 000:066.430 - 0.003ms returns JLINKARM_CM3_RESET_TYPE_NORMAL
T51F8 000:066.434 JLINK_Reset()
T51F8 000:066.441   JLINK_GetResetTypeDesc
T51F8 000:066.444   - 0.003ms 
T51F8 000:066.456   Reset type: NORMAL (https://wiki.segger.com/J-Link_Reset_Strategies)
T51F8 000:066.462   CPU is running
T51F8 000:066.467   CPU_WriteMem(4 bytes @ 0xE000EDF0)
T51F8 000:066.671   CPU is running
T51F8 000:066.676   CPU_WriteMem(4 bytes @ 0xE000EDFC)
T51F8 000:066.902   Reset: Halt core after reset via DEMCR.VC_CORERESET.
T51F8 000:067.246   Reset: Reset device via AIRCR.SYSRESETREQ.
T51F8 000:067.251   CPU is running
T51F8 000:067.256   CPU_WriteMem(4 bytes @ 0xE000ED0C)
T51F8 000:119.914   CPU_ReadMem(4 bytes @ 0xE000EDF0)
T51F8 000:120.328   CPU_ReadMem(4 bytes @ 0xE000EDF0)
T51F8 000:122.773   CPU_WriteMem(4 bytes @ 0xE000EDFC)
T51F8 000:129.050   CPU_ReadMem(4 bytes @ 0xE000EDF0)
T51F8 000:131.673   CPU_WriteMem(4 bytes @ 0xE0002000)
T51F8 000:132.146   CPU_ReadMem(4 bytes @ 0xE000EDFC)
T51F8 000:132.494   CPU_ReadMem(4 bytes @ 0xE0001000)
T51F8 000:133.028 - 66.591ms 
T51F8 000:133.099 JLINK_HasError()
T51F8 000:133.106 JLINK_ReadReg(R15 (PC))
T51F8 000:133.113 - 0.008ms returns 0x0800046C
T51F8 000:133.117 JLINK_ReadReg(XPSR)
T51F8 000:133.121 - 0.004ms returns 0x01000000
T51F8 000:133.126 JLINK_Halt()
T51F8 000:133.130 - 0.003ms returns 0x00
T51F8 000:133.250 JLINK_ReadMemU32(0xE000EDF0, 0x1 Items)
T51F8 000:133.268   CPU_ReadMem(4 bytes @ 0xE000EDF0)
T51F8 000:133.606   Data:  03 00 03 00
T51F8 000:133.621   Debug reg: DHCSR
T51F8 000:133.641 - 0.389ms returns 1 (0x1)
T51F8 000:133.667 JLINK_WriteU32(0xE000EDF0, 0xA05F0003)
T51F8 000:133.671   Debug reg: DHCSR
T51F8 000:133.975   CPU_WriteMem(4 bytes @ 0xE000EDF0)
T51F8 000:134.288 - 0.624ms returns 0 (0x00000000)
T51F8 000:134.305 JLINK_WriteU32(0xE000EDFC, 0x01000000)
T51F8 000:134.373   Debug reg: DEMCR
T51F8 000:134.386   CPU_WriteMem(4 bytes @ 0xE000EDFC)
T51F8 000:134.684 - 0.378ms returns 0 (0x00000000)
T51F8 000:134.719 JLINK_GetHWStatus(...)
T51F8 000:134.965 - 0.246ms returns 0
T51F8 000:135.000 JLINK_GetNumBPUnits(Type = 0xFFFFFF00)
T51F8 000:135.009 - 0.009ms returns 0x08
T51F8 000:135.016 JLINK_GetNumBPUnits(Type = 0xF0)
T51F8 000:135.020 - 0.004ms returns 0x2000
T51F8 000:135.026 JLINK_GetNumWPUnits()
T51F8 000:135.031 - 0.004ms returns 4
T51F8 000:135.043 JLINK_GetSpeed()
T51F8 000:135.047 - 0.004ms returns 4000
T51F8 000:135.057 JLINK_ReadMemU32(0xE000E004, 0x1 Items)
T51F8 000:135.066   CPU_ReadMem(4 bytes @ 0xE000E004)
T51F8 000:135.363   Data:  05 00 00 00
T51F8 000:135.380 - 0.323ms returns 1 (0x1)
T51F8 000:135.388 JLINK_ReadMemU32(0xE000E004, 0x1 Items)
T51F8 000:135.397   CPU_ReadMem(4 bytes @ 0xE000E004)
T51F8 000:135.703   Data:  05 00 00 00
T51F8 000:135.721 - 0.332ms returns 1 (0x1)
T51F8 000:135.729 JLINK_WriteMemEx(0xE0001000, 0x0000001C Bytes, Flags = 0x02000004)
T51F8 000:135.734   Data:  01 00 00 00 00 00 00 00 00 00 00 00 00 00 00 00 ...
T51F8 000:135.746   CPU_WriteMem(28 bytes @ 0xE0001000)
T51F8 000:136.255 - 0.524ms returns 0x1C
T51F8 000:136.305 JLINK_HasError()
T51F8 000:136.312 JLINK_ReadReg(R15 (PC))
T51F8 000:136.318 - 0.006ms returns 0x0800046C
T51F8 000:136.324 JLINK_ReadReg(XPSR)
T51F8 000:136.328 - 0.004ms returns 0x01000000
T51F8 000:138.217 JLINK_ReadMemEx(0xE0001004, 0x4 Bytes, Flags = 0x02000000)
T51F8 000:138.231   Data:  00 00 00 00
T51F8 000:138.240   Debug reg: DWT_CYCCNT
T51F8 000:138.247 - 0.030ms returns 4 (0x4)
T51F8 000:508.739 JLINK_HasError()
T51F8 000:508.760 JLINK_SetResetType(JLINKARM_CM3_RESET_TYPE_NORMAL)
T51F8 000:508.765 - 0.004ms returns JLINKARM_CM3_RESET_TYPE_NORMAL
T51F8 000:508.769 JLINK_Reset()
T51F8 000:508.778   JLINK_GetResetTypeDesc
T51F8 000:508.782   - 0.003ms 
T51F8 000:508.794   Reset type: NORMAL (https://wiki.segger.com/J-Link_Reset_Strategies)
T51F8 000:508.800   CPU_WriteMem(4 bytes @ 0xE000EDF0)
T51F8 000:509.085   CPU_WriteMem(4 bytes @ 0xE000EDFC)
T51F8 000:509.333   Reset: Halt core after reset via DEMCR.VC_CORERESET.
T51F8 000:509.698   Reset: Reset device via AIRCR.SYSRESETREQ.
T51F8 000:509.714   CPU_WriteMem(4 bytes @ 0xE000ED0C)
T51F8 000:563.189   CPU_ReadMem(4 bytes @ 0xE000EDF0)
T51F8 000:563.441   CPU_ReadMem(4 bytes @ 0xE000EDF0)
T51F8 000:563.689   CPU_WriteMem(4 bytes @ 0xE000EDFC)
T51F8 000:569.689   CPU_ReadMem(4 bytes @ 0xE000EDF0)
T51F8 000:572.336   CPU_WriteMem(4 bytes @ 0xE0002000)
T51F8 000:572.742   CPU_ReadMem(4 bytes @ 0xE000EDFC)
T51F8 000:573.192   CPU_ReadMem(4 bytes @ 0xE0001000)
T51F8 000:573.495 - 64.724ms 
T51F8 000:573.553 JLINK_HasError()
T51F8 000:573.558 JLINK_ReadReg(R15 (PC))
T51F8 000:573.564 - 0.006ms returns 0x0800046C
T51F8 000:573.569 JLINK_ReadReg(XPSR)
T51F8 000:573.573 - 0.004ms returns 0x01000000
T51F8 003:139.952 JLINK_ReadMemEx(0x0800046C, 0x3C Bytes, Flags = 0x02000000)
T51F8 003:139.982   CPU_ReadMem(128 bytes @ 0x08000440)
T51F8 003:140.921    -- Updating C cache (128 bytes @ 0x08000440)
T51F8 003:140.938    -- Read from C cache (60 bytes @ 0x0800046C)
T51F8 003:140.944   Data:  0A 48 80 47 0A 48 80 47 0A 48 00 47 FE E7 FE E7 ...
T51F8 003:140.950 - 0.998ms returns 60 (0x3C)
T51F8 003:140.957 JLINK_ReadMemEx(0x0800046C, 0x2 Bytes, Flags = 0x02000000)
T51F8 003:140.962    -- Read from C cache (2 bytes @ 0x0800046C)
T51F8 003:140.968   Data:  0A 48
T51F8 003:140.973 - 0.016ms returns 2 (0x2)
T51F8 003:141.023 JLINK_ReadMemEx(0x0800046E, 0x2 Bytes, Flags = 0x02000000)
T51F8 003:141.026    -- Read from C cache (2 bytes @ 0x0800046E)
T51F8 003:141.031   Data:  80 47
T51F8 003:141.036 - 0.013ms returns 2 (0x2)
T51F8 003:511.143 JLINK_HasError()
T51F8 003:511.171 JLINK_ReadReg(R0)
T51F8 003:511.466 - 0.295ms returns 0x00000000
T51F8 003:511.482 JLINK_ReadReg(R1)
T51F8 003:511.486 - 0.003ms returns 0x00000000
T51F8 003:511.489 JLINK_ReadReg(R2)
T51F8 003:511.493 - 0.003ms returns 0x00000000
T51F8 003:511.496 JLINK_ReadReg(R3)
T51F8 003:511.500 - 0.003ms returns 0x00000000
T51F8 003:511.503 JLINK_ReadReg(R4)
T51F8 003:511.506 - 0.003ms returns 0x00000000
T51F8 003:511.510 JLINK_ReadReg(R5)
T51F8 003:511.513 - 0.003ms returns 0x00000000
T51F8 003:511.555 JLINK_ReadReg(R6)
T51F8 003:511.560 - 0.004ms returns 0x00000000
T51F8 003:511.564 JLINK_ReadReg(R7)
T51F8 003:511.567 - 0.002ms returns 0x00000000
T51F8 003:511.574 JLINK_ReadReg(R8)
T51F8 003:511.576 - 0.006ms returns 0x00000000
T51F8 003:511.580 JLINK_ReadReg(R9)
T51F8 003:511.583 - 0.002ms returns 0x00000000
T51F8 003:511.586 JLINK_ReadReg(R10)
T51F8 003:511.590 - 0.003ms returns 0x00000000
T51F8 003:511.593 JLINK_ReadReg(R11)
T51F8 003:511.596 - 0.002ms returns 0x00000000
T51F8 003:511.599 JLINK_ReadReg(R12)
T51F8 003:511.602 - 0.002ms returns 0x00000000
T51F8 003:511.605 JLINK_ReadReg(R13 (SP))
T51F8 003:511.608 - 0.003ms returns 0x24007660
T51F8 003:511.612 JLINK_ReadReg(R14)
T51F8 003:511.614 - 0.002ms returns 0xFFFFFFFF
T51F8 003:511.618 JLINK_ReadReg(R15 (PC))
T51F8 003:511.621 - 0.002ms returns 0x0800046C
T51F8 003:511.624 JLINK_ReadReg(XPSR)
T51F8 003:511.627 - 0.003ms returns 0x01000000
T51F8 003:511.630 JLINK_ReadReg(MSP)
T51F8 003:511.633 - 0.002ms returns 0x24007660
T51F8 003:511.636 JLINK_ReadReg(PSP)
T51F8 003:511.639 - 0.002ms returns 0x00000000
T51F8 003:511.642 JLINK_ReadReg(CFBP)
T51F8 003:511.645 - 0.002ms returns 0x00000000
T51F8 003:511.648 JLINK_ReadReg(FPSCR)
T51F8 003:514.574 - 2.924ms returns 0x00000000
T51F8 003:514.582 JLINK_ReadReg(FPS0)
T51F8 003:514.586 - 0.004ms returns 0x00000000
T51F8 003:514.590 JLINK_ReadReg(FPS1)
T51F8 003:514.593 - 0.003ms returns 0x00000000
T51F8 003:514.597 JLINK_ReadReg(FPS2)
T51F8 003:514.600 - 0.003ms returns 0x00000000
T51F8 003:514.604 JLINK_ReadReg(FPS3)
T51F8 003:514.610 - 0.006ms returns 0x00000000
T51F8 003:514.613 JLINK_ReadReg(FPS4)
T51F8 003:514.616 - 0.002ms returns 0x00000000
T51F8 003:514.619 JLINK_ReadReg(FPS5)
T51F8 003:514.622 - 0.003ms returns 0x00000000
T51F8 003:514.625 JLINK_ReadReg(FPS6)
T51F8 003:514.628 - 0.003ms returns 0x00000000
T51F8 003:514.631 JLINK_ReadReg(FPS7)
T51F8 003:514.634 - 0.002ms returns 0x00000000
T51F8 003:514.637 JLINK_ReadReg(FPS8)
T51F8 003:514.640 - 0.002ms returns 0x00000000
T51F8 003:514.644 JLINK_ReadReg(FPS9)
T51F8 003:514.646 - 0.002ms returns 0x00000000
T51F8 003:514.650 JLINK_ReadReg(FPS10)
T51F8 003:514.652 - 0.002ms returns 0x00000000
T51F8 003:514.656 JLINK_ReadReg(FPS11)
T51F8 003:514.658 - 0.002ms returns 0x00000000
T51F8 003:514.662 JLINK_ReadReg(FPS12)
T51F8 003:514.664 - 0.002ms returns 0x00000000
T51F8 003:514.668 JLINK_ReadReg(FPS13)
T51F8 003:514.670 - 0.002ms returns 0x00000000
T51F8 003:514.674 JLINK_ReadReg(FPS14)
T51F8 003:514.676 - 0.002ms returns 0x00000000
T51F8 003:514.680 JLINK_ReadReg(FPS15)
T51F8 003:514.683 - 0.002ms returns 0xFFFFFFFF
T51F8 003:514.686 JLINK_ReadReg(FPS16)
T51F8 003:514.689 - 0.002ms returns 0x00000000
T51F8 003:514.692 JLINK_ReadReg(FPS17)
T51F8 003:514.695 - 0.002ms returns 0x00000000
T51F8 003:514.698 JLINK_ReadReg(FPS18)
T51F8 003:514.701 - 0.002ms returns 0x00000000
T51F8 003:514.704 JLINK_ReadReg(FPS19)
T51F8 003:514.707 - 0.002ms returns 0x00000000
T51F8 003:514.710 JLINK_ReadReg(FPS20)
T51F8 003:514.713 - 0.002ms returns 0x00000000
T51F8 003:514.716 JLINK_ReadReg(FPS21)
T51F8 003:514.719 - 0.002ms returns 0x00000000
T51F8 003:514.722 JLINK_ReadReg(FPS22)
T51F8 003:514.725 - 0.002ms returns 0x00000000
T51F8 003:514.728 JLINK_ReadReg(FPS23)
T51F8 003:514.732 - 0.002ms returns 0x00000000
T51F8 003:514.735 JLINK_ReadReg(FPS24)
T51F8 003:514.738 - 0.002ms returns 0x00000000
T51F8 003:514.741 JLINK_ReadReg(FPS25)
T51F8 003:514.744 - 0.002ms returns 0x00000000
T51F8 003:514.747 JLINK_ReadReg(FPS26)
T51F8 003:514.750 - 0.002ms returns 0x00000000
T51F8 003:514.753 JLINK_ReadReg(FPS27)
T51F8 003:514.756 - 0.002ms returns 0x00000000
T51F8 003:514.759 JLINK_ReadReg(FPS28)
T51F8 003:514.762 - 0.002ms returns 0x00000000
T51F8 003:514.765 JLINK_ReadReg(FPS29)
T51F8 003:514.768 - 0.002ms returns 0x00000000
T51F8 003:514.771 JLINK_ReadReg(FPS30)
T51F8 003:514.774 - 0.002ms returns 0x00000000
T51F8 003:514.777 JLINK_ReadReg(FPS31)
T51F8 003:514.780 - 0.002ms returns 0xFFFFFFFF
T51F8 003:520.084 JLINK_ReadMemEx(0x240000C4, 0x1 Bytes, Flags = 0x02000000)
T51F8 003:520.104   CPU_ReadMem(64 bytes @ 0x240000C0)
T51F8 003:520.833    -- Updating C cache (64 bytes @ 0x240000C0)
T51F8 003:520.868    -- Read from C cache (1 bytes @ 0x240000C4)
T51F8 003:520.899   Data:  00
T51F8 003:520.931 - 0.845ms returns 1 (0x1)
T51F8 003:521.372 JLINK_ReadMemEx(0x240000C4, 0x1 Bytes, Flags = 0x02000000)
T51F8 003:521.379    -- Read from C cache (1 bytes @ 0x240000C4)
T51F8 003:521.384   Data:  00
T51F8 003:521.389 - 0.017ms returns 1 (0x1)
T51F8 003:521.404 JLINK_ReadMemEx(0x240000C4, 0x1 Bytes, Flags = 0x02000000)
T51F8 003:521.407    -- Read from C cache (1 bytes @ 0x240000C4)
T51F8 003:521.412   Data:  00
T51F8 003:521.417 - 0.013ms returns 1 (0x1)
T51F8 003:532.280 JLINK_ReadMemEx(0x2400100C, 0x4 Bytes, Flags = 0x02000000)
T51F8 003:532.303   CPU_ReadMem(64 bytes @ 0x24001000)
T51F8 003:532.944    -- Updating C cache (64 bytes @ 0x24001000)
T51F8 003:532.980    -- Read from C cache (4 bytes @ 0x2400100C)
T51F8 003:532.992   Data:  00 00 00 00
T51F8 003:532.998 - 0.718ms returns 4 (0x4)
T51F8 003:533.316 JLINK_ReadMemEx(0x2400100C, 0x4 Bytes, Flags = 0x02000000)
T51F8 003:533.324    -- Read from C cache (4 bytes @ 0x2400100C)
T51F8 003:533.329   Data:  00 00 00 00
T51F8 003:533.334 - 0.018ms returns 4 (0x4)
T51F8 003:533.346 JLINK_ReadMemEx(0x2400100C, 0x4 Bytes, Flags = 0x02000000)
T51F8 003:533.350    -- Read from C cache (4 bytes @ 0x2400100C)
T51F8 003:533.354   Data:  00 00 00 00
T51F8 003:533.359 - 0.013ms returns 4 (0x4)
T51F8 003:536.607 JLINK_ReadMemEx(0x24001004, 0x4 Bytes, Flags = 0x02000000)
T51F8 003:536.622    -- Read from C cache (4 bytes @ 0x24001004)
T51F8 003:536.628   Data:  00 00 00 00
T51F8 003:536.635 - 0.040ms returns 4 (0x4)
T51F8 003:536.998 JLINK_ReadMemEx(0x24001004, 0x4 Bytes, Flags = 0x02000000)
T51F8 003:537.004    -- Read from C cache (4 bytes @ 0x24001004)
T51F8 003:537.009   Data:  00 00 00 00
T51F8 003:537.014 - 0.016ms returns 4 (0x4)
T51F8 003:537.025 JLINK_ReadMemEx(0x24001004, 0x4 Bytes, Flags = 0x02000000)
T51F8 003:537.029    -- Read from C cache (4 bytes @ 0x24001004)
T51F8 003:537.034   Data:  00 00 00 00
T51F8 003:537.038 - 0.013ms returns 4 (0x4)
T51F8 003:544.301 JLINK_ReadMemEx(0x240000C7, 0x6 Bytes, Flags = 0x02000000)
T51F8 003:544.320    -- Read from C cache (6 bytes @ 0x240000C7)
T51F8 003:544.324   Data:  00 00 00 00 00 00
T51F8 003:544.329 - 0.028ms returns 6 (0x6)
T51F8 003:557.082 JLINK_ReadMemEx(0x240000E0, 0x4 Bytes, Flags = 0x02000000)
T51F8 003:557.108    -- Read from C cache (4 bytes @ 0x240000E0)
T51F8 003:557.113   Data:  00 00 00 00
T51F8 003:557.118 - 0.036ms returns 4 (0x4)
T51F8 003:557.434 JLINK_ReadMemEx(0x240000E0, 0x4 Bytes, Flags = 0x02000000)
T51F8 003:557.444    -- Read from C cache (4 bytes @ 0x240000E0)
T51F8 003:557.449   Data:  00 00 00 00
T51F8 003:557.456 - 0.022ms returns 4 (0x4)
T51F8 003:557.469 JLINK_ReadMemEx(0x240000E0, 0x4 Bytes, Flags = 0x02000000)
T51F8 003:557.474    -- Read from C cache (4 bytes @ 0x240000E0)
T51F8 003:557.478   Data:  00 00 00 00
T51F8 003:557.483 - 0.014ms returns 4 (0x4)
T51F8 003:558.412 JLINK_ReadMemEx(0x24001028, 0x4 Bytes, Flags = 0x02000000)
T51F8 003:558.426    -- Read from C cache (4 bytes @ 0x24001028)
T51F8 003:558.431   Data:  00 00 00 00
T51F8 003:558.436 - 0.025ms returns 4 (0x4)
T51F8 003:558.761 JLINK_ReadMemEx(0x24001028, 0x4 Bytes, Flags = 0x02000000)
T51F8 003:558.768    -- Read from C cache (4 bytes @ 0x24001028)
T51F8 003:558.772   Data:  00 00 00 00
T51F8 003:558.777 - 0.015ms returns 4 (0x4)
T51F8 003:558.787 JLINK_ReadMemEx(0x24001028, 0x4 Bytes, Flags = 0x02000000)
T51F8 003:558.790    -- Read from C cache (4 bytes @ 0x24001028)
T51F8 003:558.794   Data:  00 00 00 00
T51F8 003:558.798 - 0.011ms returns 4 (0x4)
T0D68 003:634.364 JLINK_ReadMemEx(0x0800046C, 0x2 Bytes, Flags = 0x02000000)
T0D68 003:634.392    -- Read from C cache (2 bytes @ 0x0800046C)
T0D68 003:634.398   Data:  0A 48
T0D68 003:634.404 - 0.039ms returns 2 (0x2)
T0D68 003:634.414 JLINK_HasError()
T0D68 003:634.420 JLINK_SetBPEx(Addr = 0x0800CEA4, Type = 0xFFFFFFF2)
T0D68 003:634.427 - 0.006ms returns 0x00000001
T0D68 003:634.430 JLINK_HasError()
T0D68 003:634.434 JLINK_HasError()
T0D68 003:634.438 JLINK_Go()
T0D68 003:634.448   CPU_WriteMem(4 bytes @ 0xE0002000)
T0D68 003:634.704   CPU_ReadMem(4 bytes @ 0xE0001000)
T0D68 003:634.998   CPU_WriteMem(4 bytes @ 0xE0002008)
T0D68 003:635.008   CPU_WriteMem(4 bytes @ 0xE000200C)
T0D68 003:635.013   CPU_WriteMem(4 bytes @ 0xE0002010)
T0D68 003:635.018   CPU_WriteMem(4 bytes @ 0xE0002014)
T0D68 003:635.024   CPU_WriteMem(4 bytes @ 0xE0002018)
T0D68 003:635.029   CPU_WriteMem(4 bytes @ 0xE000201C)
T0D68 003:635.034   CPU_WriteMem(4 bytes @ 0xE0002020)
T0D68 003:635.039   CPU_WriteMem(4 bytes @ 0xE0002024)
T0D68 003:636.402   CPU_WriteMem(4 bytes @ 0xE0001004)
T0D68 003:637.354   Memory map 'after startup completion point' is active
T0D68 003:637.362 - 2.922ms 
T0D68 003:737.465 JLINK_HasError()
T0D68 003:737.548 JLINK_IsHalted()
T0D68 003:739.625 - 2.076ms returns TRUE
T0D68 003:739.644 JLINK_HasError()
T0D68 003:739.649 JLINK_Halt()
T0D68 003:739.652 - 0.003ms returns 0x00
T0D68 003:739.656 JLINK_IsHalted()
T0D68 003:739.660 - 0.003ms returns TRUE
T0D68 003:739.666 JLINK_IsHalted()
T0D68 003:739.669 - 0.003ms returns TRUE
T0D68 003:739.673 JLINK_IsHalted()
T0D68 003:739.676 - 0.003ms returns TRUE
T0D68 003:739.680 JLINK_HasError()
T0D68 003:739.685 JLINK_ReadReg(R15 (PC))
T0D68 003:739.690 - 0.005ms returns 0x0800CEA4
T0D68 003:739.694 JLINK_ReadReg(XPSR)
T0D68 003:739.697 - 0.003ms returns 0x21000000
T0D68 003:739.704 JLINK_HasError()
T0D68 003:739.711 JLINK_ClrBPEx(BPHandle = 0x00000001)
T0D68 003:739.715 - 0.003ms returns 0x00
T0D68 003:739.719 JLINK_HasError()
T0D68 003:739.722 JLINK_HasError()
T0D68 003:739.726 JLINK_ReadMemU32(0xE000ED30, 0x1 Items)
T0D68 003:739.734   CPU_ReadMem(4 bytes @ 0xE000ED30)
T0D68 003:740.125   Data:  02 00 00 00
T0D68 003:740.140 - 0.413ms returns 1 (0x1)
T0D68 003:740.147 JLINK_ReadMemU32(0xE0001028, 0x1 Items)
T0D68 003:740.155   CPU_ReadMem(4 bytes @ 0xE0001028)
T0D68 003:740.424   Data:  00 00 00 00
T0D68 003:740.429   Debug reg: DWT_FUNC[0]
T0D68 003:740.434 - 0.287ms returns 1 (0x1)
T0D68 003:740.439 JLINK_ReadMemU32(0xE0001038, 0x1 Items)
T0D68 003:740.444   CPU_ReadMem(4 bytes @ 0xE0001038)
T0D68 003:740.709   Data:  00 02 00 00
T0D68 003:740.714   Debug reg: DWT_FUNC[1]
T0D68 003:740.718 - 0.279ms returns 1 (0x1)
T0D68 003:740.723 JLINK_ReadMemU32(0xE0001048, 0x1 Items)
T0D68 003:740.727   CPU_ReadMem(4 bytes @ 0xE0001048)
T0D68 003:740.990   Data:  00 00 00 00
T0D68 003:740.995   Debug reg: DWT_FUNC[2]
T0D68 003:741.000 - 0.276ms returns 1 (0x1)
T0D68 003:741.004 JLINK_ReadMemU32(0xE0001058, 0x1 Items)
T0D68 003:741.008   CPU_ReadMem(4 bytes @ 0xE0001058)
T0D68 003:741.327   Data:  00 00 00 00
T0D68 003:741.340   Debug reg: DWT_FUNC[3]
T0D68 003:741.370 - 0.365ms returns 1 (0x1)
T0D68 003:741.442 JLINK_HasError()
T0D68 003:741.447 JLINK_ReadReg(R0)
T0D68 003:741.451 - 0.004ms returns 0x24007060
T0D68 003:741.455 JLINK_ReadReg(R1)
T0D68 003:741.458 - 0.003ms returns 0x24007260
T0D68 003:741.462 JLINK_ReadReg(R2)
T0D68 003:741.542 - 0.079ms returns 0x24007260
T0D68 003:741.545 JLINK_ReadReg(R3)
T0D68 003:741.548 - 0.003ms returns 0x24007260
T0D68 003:741.552 JLINK_ReadReg(R4)
T0D68 003:741.555 - 0.003ms returns 0x00000000
T0D68 003:741.559 JLINK_ReadReg(R5)
T0D68 003:741.562 - 0.003ms returns 0x24006FFC
T0D68 003:741.566 JLINK_ReadReg(R6)
T0D68 003:741.569 - 0.003ms returns 0x00000000
T0D68 003:741.572 JLINK_ReadReg(R7)
T0D68 003:741.576 - 0.003ms returns 0x00000000
T0D68 003:741.579 JLINK_ReadReg(R8)
T0D68 003:741.582 - 0.003ms returns 0x00000000
T0D68 003:741.586 JLINK_ReadReg(R9)
T0D68 003:741.589 - 0.003ms returns 0x00000000
T0D68 003:741.593 JLINK_ReadReg(R10)
T0D68 003:741.596 - 0.003ms returns 0x08011C14
T0D68 003:741.600 JLINK_ReadReg(R11)
T0D68 003:741.604 - 0.003ms returns 0x00000000
T0D68 003:741.612 JLINK_ReadReg(R12)
T0D68 003:741.618 - 0.005ms returns 0x2400703C
T0D68 003:741.622 JLINK_ReadReg(R13 (SP))
T0D68 003:741.626 - 0.003ms returns 0x24007660
T0D68 003:741.630 JLINK_ReadReg(R14)
T0D68 003:741.633 - 0.003ms returns 0x0800039B
T0D68 003:741.637 JLINK_ReadReg(R15 (PC))
T0D68 003:741.640 - 0.003ms returns 0x0800CEA4
T0D68 003:741.644 JLINK_ReadReg(XPSR)
T0D68 003:741.648 - 0.003ms returns 0x21000000
T0D68 003:741.653 JLINK_ReadReg(MSP)
T0D68 003:741.656 - 0.003ms returns 0x24007660
T0D68 003:741.660 JLINK_ReadReg(PSP)
T0D68 003:741.663 - 0.003ms returns 0x00000000
T0D68 003:741.671 JLINK_ReadReg(CFBP)
T0D68 003:741.674 - 0.003ms returns 0x04000000
T0D68 003:741.678 JLINK_ReadReg(FPSCR)
T0D68 003:744.518 - 2.839ms returns 0x03000000
T0D68 003:744.525 JLINK_ReadReg(FPS0)
T0D68 003:744.529 - 0.003ms returns 0x00000000
T0D68 003:744.550 JLINK_ReadReg(FPS1)
T0D68 003:744.557 - 0.007ms returns 0x00000000
T0D68 003:744.561 JLINK_ReadReg(FPS2)
T0D68 003:744.564 - 0.003ms returns 0x00000000
T0D68 003:744.568 JLINK_ReadReg(FPS3)
T0D68 003:744.571 - 0.003ms returns 0x00000000
T0D68 003:744.575 JLINK_ReadReg(FPS4)
T0D68 003:744.578 - 0.003ms returns 0x00000000
T0D68 003:744.582 JLINK_ReadReg(FPS5)
T0D68 003:744.585 - 0.003ms returns 0x00000000
T0D68 003:744.589 JLINK_ReadReg(FPS6)
T0D68 003:744.592 - 0.003ms returns 0x00000000
T0D68 003:744.596 JLINK_ReadReg(FPS7)
T0D68 003:744.599 - 0.003ms returns 0x00000000
T0D68 003:744.602 JLINK_ReadReg(FPS8)
T0D68 003:744.606 - 0.003ms returns 0x00000000
T0D68 003:744.609 JLINK_ReadReg(FPS9)
T0D68 003:744.612 - 0.003ms returns 0x00000000
T0D68 003:744.616 JLINK_ReadReg(FPS10)
T0D68 003:744.620 - 0.003ms returns 0x00000000
T0D68 003:744.623 JLINK_ReadReg(FPS11)
T0D68 003:744.626 - 0.003ms returns 0x00000000
T0D68 003:744.630 JLINK_ReadReg(FPS12)
T0D68 003:744.633 - 0.003ms returns 0x00000000
T0D68 003:744.637 JLINK_ReadReg(FPS13)
T0D68 003:744.640 - 0.003ms returns 0x00000000
T0D68 003:744.644 JLINK_ReadReg(FPS14)
T0D68 003:744.647 - 0.003ms returns 0x00000000
T0D68 003:744.650 JLINK_ReadReg(FPS15)
T0D68 003:744.654 - 0.003ms returns 0xFFFFFFFF
T0D68 003:744.657 JLINK_ReadReg(FPS16)
T0D68 003:744.660 - 0.003ms returns 0x00000000
T0D68 003:744.664 JLINK_ReadReg(FPS17)
T0D68 003:744.667 - 0.003ms returns 0x00000000
T0D68 003:744.671 JLINK_ReadReg(FPS18)
T0D68 003:744.674 - 0.003ms returns 0x00000000
T0D68 003:744.678 JLINK_ReadReg(FPS19)
T0D68 003:744.681 - 0.003ms returns 0x00000000
T0D68 003:744.684 JLINK_ReadReg(FPS20)
T0D68 003:744.688 - 0.003ms returns 0x00000000
T0D68 003:744.691 JLINK_ReadReg(FPS21)
T0D68 003:744.694 - 0.003ms returns 0x00000000
T0D68 003:744.698 JLINK_ReadReg(FPS22)
T0D68 003:744.701 - 0.003ms returns 0x00000000
T0D68 003:744.705 JLINK_ReadReg(FPS23)
T0D68 003:744.708 - 0.003ms returns 0x00000000
T0D68 003:744.712 JLINK_ReadReg(FPS24)
T0D68 003:744.715 - 0.003ms returns 0x00000000
T0D68 003:744.719 JLINK_ReadReg(FPS25)
T0D68 003:744.722 - 0.003ms returns 0x00000000
T0D68 003:744.725 JLINK_ReadReg(FPS26)
T0D68 003:744.728 - 0.003ms returns 0x00000000
T0D68 003:744.732 JLINK_ReadReg(FPS27)
T0D68 003:744.735 - 0.003ms returns 0x00000000
T0D68 003:744.739 JLINK_ReadReg(FPS28)
T0D68 003:744.742 - 0.003ms returns 0x00000000
T0D68 003:744.746 JLINK_ReadReg(FPS29)
T0D68 003:744.749 - 0.003ms returns 0x00000000
T0D68 003:744.752 JLINK_ReadReg(FPS30)
T0D68 003:744.756 - 0.003ms returns 0x00000000
T0D68 003:744.760 JLINK_ReadReg(FPS31)
T0D68 003:744.763 - 0.003ms returns 0xFFFFFFFF
T0D68 003:744.770 JLINK_ReadMemEx(0x2400003C, 0x4 Bytes, Flags = 0x02000000)
T0D68 003:744.776   CPU_ReadMem(64 bytes @ 0x24000000)
T0D68 003:745.308    -- Updating C cache (64 bytes @ 0x24000000)
T0D68 003:745.341    -- Read from C cache (4 bytes @ 0x2400003C)
T0D68 003:745.372   Data:  00 00 00 00
T0D68 003:745.403 - 0.632ms returns 4 (0x4)
T51F8 003:745.504 JLINK_ReadMemEx(0x240000C4, 0x1 Bytes, Flags = 0x02000000)
T51F8 003:745.518   CPU_ReadMem(64 bytes @ 0x240000C0)
T51F8 003:746.086    -- Updating C cache (64 bytes @ 0x240000C0)
T51F8 003:746.116    -- Read from C cache (1 bytes @ 0x240000C4)
T51F8 003:746.121   Data:  00
T51F8 003:746.126 - 0.621ms returns 1 (0x1)
T51F8 003:746.156 JLINK_ReadMemEx(0x2400100C, 0x4 Bytes, Flags = 0x02000000)
T51F8 003:746.162   CPU_ReadMem(64 bytes @ 0x24001000)
T51F8 003:746.671    -- Updating C cache (64 bytes @ 0x24001000)
T51F8 003:746.704    -- Read from C cache (4 bytes @ 0x2400100C)
T51F8 003:746.733   Data:  00 00 00 00
T51F8 003:746.764 - 0.606ms returns 4 (0x4)
T51F8 003:746.784 JLINK_ReadMemEx(0x24001004, 0x4 Bytes, Flags = 0x02000000)
T51F8 003:746.788    -- Read from C cache (4 bytes @ 0x24001004)
T51F8 003:746.793   Data:  00 00 00 00
T51F8 003:746.797 - 0.013ms returns 4 (0x4)
T51F8 003:746.806 JLINK_ReadMemEx(0x240000C7, 0x6 Bytes, Flags = 0x02000000)
T51F8 003:746.810    -- Read from C cache (6 bytes @ 0x240000C7)
T51F8 003:746.815   Data:  00 00 00 00 00 00
T51F8 003:746.819 - 0.013ms returns 6 (0x6)
T51F8 003:746.829 JLINK_ReadMemEx(0x240000E0, 0x4 Bytes, Flags = 0x02000000)
T51F8 003:746.833    -- Read from C cache (4 bytes @ 0x240000E0)
T51F8 003:746.838   Data:  00 00 00 00
T51F8 003:746.842 - 0.013ms returns 4 (0x4)
T51F8 003:746.848 JLINK_ReadMemEx(0x24001028, 0x4 Bytes, Flags = 0x02000000)
T51F8 003:746.852    -- Read from C cache (4 bytes @ 0x24001028)
T51F8 003:746.856   Data:  00 00 00 00
T51F8 003:746.860 - 0.013ms returns 4 (0x4)
T51F8 004:699.748 JLINK_HasError()
T51F8 004:699.813 JLINK_SetResetType(JLINKARM_CM3_RESET_TYPE_NORMAL)
T51F8 004:699.827 - 0.014ms returns JLINKARM_CM3_RESET_TYPE_NORMAL
T51F8 004:699.843 JLINK_Reset()
T51F8 004:699.889   Memory map 'before startup completion point' is active
T51F8 004:699.907   JLINK_GetResetTypeDesc
T51F8 004:699.917   - 0.010ms 
T51F8 004:699.937   Reset type: NORMAL (https://wiki.segger.com/J-Link_Reset_Strategies)
T51F8 004:699.959   CPU_WriteMem(4 bytes @ 0xE000EDF0)
T51F8 004:700.444   CPU_WriteMem(4 bytes @ 0xE000EDFC)
T51F8 004:700.985   Reset: Halt core after reset via DEMCR.VC_CORERESET.
T51F8 004:701.587   Reset: Reset device via AIRCR.SYSRESETREQ.
T51F8 004:701.614   CPU_WriteMem(4 bytes @ 0xE000ED0C)
T51F8 004:755.301   CPU_ReadMem(4 bytes @ 0xE000EDF0)
T51F8 004:755.807   CPU_ReadMem(4 bytes @ 0xE000EDF0)
T51F8 004:756.589   CPU_WriteMem(4 bytes @ 0xE000EDFC)
T51F8 004:762.457   CPU_ReadMem(4 bytes @ 0xE000EDF0)
T51F8 004:765.097   CPU_WriteMem(4 bytes @ 0xE0002000)
T51F8 004:765.513   CPU_ReadMem(4 bytes @ 0xE000EDFC)
T51F8 004:765.948   CPU_ReadMem(4 bytes @ 0xE0001000)
T51F8 004:766.351 - 66.510ms 
T51F8 004:766.562 JLINK_HasError()
T51F8 004:766.593 JLINK_ReadReg(R15 (PC))
T51F8 004:766.605 - 0.011ms returns 0x0800046C
T51F8 004:766.613 JLINK_ReadReg(XPSR)
T51F8 004:766.620 - 0.006ms returns 0x01000000
T51F8 004:923.339 JLINK_HasError()
T51F8 004:923.362 JLINK_ReadReg(R0)
T51F8 004:923.368 - 0.005ms returns 0x00000000
T51F8 004:923.371 JLINK_ReadReg(R1)
T51F8 004:923.374 - 0.003ms returns 0x00000000
T51F8 004:923.377 JLINK_ReadReg(R2)
T51F8 004:923.380 - 0.002ms returns 0x00000000
T51F8 004:923.383 JLINK_ReadReg(R3)
T51F8 004:923.386 - 0.002ms returns 0x00000000
T51F8 004:923.389 JLINK_ReadReg(R4)
T51F8 004:923.392 - 0.002ms returns 0x00000000
T51F8 004:923.395 JLINK_ReadReg(R5)
T51F8 004:923.398 - 0.002ms returns 0x00000000
T51F8 004:923.401 JLINK_ReadReg(R6)
T51F8 004:923.405 - 0.002ms returns 0x00000000
T51F8 004:923.407 JLINK_ReadReg(R7)
T51F8 004:923.410 - 0.002ms returns 0x00000000
T51F8 004:923.413 JLINK_ReadReg(R8)
T51F8 004:923.417 - 0.002ms returns 0x00000000
T51F8 004:923.420 JLINK_ReadReg(R9)
T51F8 004:923.422 - 0.002ms returns 0x00000000
T51F8 004:923.425 JLINK_ReadReg(R10)
T51F8 004:923.428 - 0.002ms returns 0x00000000
T51F8 004:923.431 JLINK_ReadReg(R11)
T51F8 004:923.434 - 0.002ms returns 0x00000000
T51F8 004:923.437 JLINK_ReadReg(R12)
T51F8 004:923.440 - 0.002ms returns 0x00000000
T51F8 004:923.443 JLINK_ReadReg(R13 (SP))
T51F8 004:923.447 - 0.003ms returns 0x24007660
T51F8 004:923.486 JLINK_ReadReg(R14)
T51F8 004:923.491 - 0.005ms returns 0xFFFFFFFF
T51F8 004:923.495 JLINK_ReadReg(R15 (PC))
T51F8 004:923.497 - 0.002ms returns 0x0800046C
T51F8 004:923.501 JLINK_ReadReg(XPSR)
T51F8 004:923.504 - 0.002ms returns 0x01000000
T51F8 004:923.507 JLINK_ReadReg(MSP)
T51F8 004:923.510 - 0.002ms returns 0x24007660
T51F8 004:923.513 JLINK_ReadReg(PSP)
T51F8 004:923.516 - 0.002ms returns 0x00000000
T51F8 004:923.519 JLINK_ReadReg(CFBP)
T51F8 004:923.522 - 0.002ms returns 0x00000000
T51F8 004:923.525 JLINK_ReadReg(FPSCR)
T51F8 004:926.767 - 3.241ms returns 0x00000000
T51F8 004:926.779 JLINK_ReadReg(FPS0)
T51F8 004:926.783 - 0.004ms returns 0x00000000
T51F8 004:926.786 JLINK_ReadReg(FPS1)
T51F8 004:926.789 - 0.002ms returns 0x00000000
T51F8 004:926.793 JLINK_ReadReg(FPS2)
T51F8 004:926.795 - 0.002ms returns 0x00000000
T51F8 004:926.799 JLINK_ReadReg(FPS3)
T51F8 004:926.801 - 0.002ms returns 0x00000000
T51F8 004:926.805 JLINK_ReadReg(FPS4)
T51F8 004:926.807 - 0.002ms returns 0x00000000
T51F8 004:926.811 JLINK_ReadReg(FPS5)
T51F8 004:926.813 - 0.002ms returns 0x00000000
T51F8 004:926.817 JLINK_ReadReg(FPS6)
T51F8 004:926.819 - 0.002ms returns 0x00000000
T51F8 004:926.823 JLINK_ReadReg(FPS7)
T51F8 004:926.825 - 0.002ms returns 0x00000000
T51F8 004:926.829 JLINK_ReadReg(FPS8)
T51F8 004:926.837 - 0.007ms returns 0x00000000
T51F8 004:926.841 JLINK_ReadReg(FPS9)
T51F8 004:926.845 - 0.002ms returns 0x00000000
T51F8 004:926.848 JLINK_ReadReg(FPS10)
T51F8 004:926.851 - 0.003ms returns 0x00000000
T51F8 004:926.854 JLINK_ReadReg(FPS11)
T51F8 004:926.857 - 0.002ms returns 0x00000000
T51F8 004:926.860 JLINK_ReadReg(FPS12)
T51F8 004:926.863 - 0.002ms returns 0x00000000
T51F8 004:926.866 JLINK_ReadReg(FPS13)
T51F8 004:926.869 - 0.002ms returns 0x00000000
T51F8 004:926.872 JLINK_ReadReg(FPS14)
T51F8 004:926.875 - 0.002ms returns 0x00000000
T51F8 004:926.878 JLINK_ReadReg(FPS15)
T51F8 004:926.881 - 0.002ms returns 0xFFFFFFFF
T51F8 004:926.884 JLINK_ReadReg(FPS16)
T51F8 004:926.887 - 0.002ms returns 0x00000000
T51F8 004:926.890 JLINK_ReadReg(FPS17)
T51F8 004:926.893 - 0.002ms returns 0x00000000
T51F8 004:926.896 JLINK_ReadReg(FPS18)
T51F8 004:926.899 - 0.002ms returns 0x00000000
T51F8 004:926.902 JLINK_ReadReg(FPS19)
T51F8 004:926.905 - 0.002ms returns 0x00000000
T51F8 004:926.908 JLINK_ReadReg(FPS20)
T51F8 004:926.911 - 0.002ms returns 0x00000000
T51F8 004:926.914 JLINK_ReadReg(FPS21)
T51F8 004:926.917 - 0.002ms returns 0x00000000
T51F8 004:926.920 JLINK_ReadReg(FPS22)
T51F8 004:926.923 - 0.002ms returns 0x00000000
T51F8 004:926.927 JLINK_ReadReg(FPS23)
T51F8 004:926.930 - 0.002ms returns 0x00000000
T51F8 004:926.933 JLINK_ReadReg(FPS24)
T51F8 004:926.935 - 0.002ms returns 0x00000000
T51F8 004:926.939 JLINK_ReadReg(FPS25)
T51F8 004:926.941 - 0.002ms returns 0x00000000
T51F8 004:926.945 JLINK_ReadReg(FPS26)
T51F8 004:926.947 - 0.002ms returns 0x00000000
T51F8 004:926.950 JLINK_ReadReg(FPS27)
T51F8 004:926.953 - 0.002ms returns 0x00000000
T51F8 004:926.956 JLINK_ReadReg(FPS28)
T51F8 004:926.959 - 0.002ms returns 0x00000000
T51F8 004:926.962 JLINK_ReadReg(FPS29)
T51F8 004:926.965 - 0.002ms returns 0x00000000
T51F8 004:926.968 JLINK_ReadReg(FPS30)
T51F8 004:926.971 - 0.002ms returns 0x00000000
T51F8 004:926.973 JLINK_ReadReg(FPS31)
T51F8 004:926.977 - 0.002ms returns 0xFFFFFFFF
T51F8 004:926.996 JLINK_ReadMemEx(0x240000C4, 0x1 Bytes, Flags = 0x02000000)
T51F8 004:927.005   CPU_ReadMem(64 bytes @ 0x240000C0)
T51F8 004:927.817    -- Updating C cache (64 bytes @ 0x240000C0)
T51F8 004:927.893    -- Read from C cache (1 bytes @ 0x240000C4)
T51F8 004:927.925   Data:  00
T51F8 004:927.929 - 0.933ms returns 1 (0x1)
T51F8 004:927.948 JLINK_ReadMemEx(0x2400100C, 0x4 Bytes, Flags = 0x02000000)
T51F8 004:927.953   CPU_ReadMem(64 bytes @ 0x24001000)
T51F8 004:928.702    -- Updating C cache (64 bytes @ 0x24001000)
T51F8 004:928.717    -- Read from C cache (4 bytes @ 0x2400100C)
T51F8 004:928.721   Data:  00 00 00 00
T51F8 004:928.725 - 0.777ms returns 4 (0x4)
T51F8 004:928.782 JLINK_ReadMemEx(0x24001004, 0x4 Bytes, Flags = 0x02000000)
T51F8 004:928.788    -- Read from C cache (4 bytes @ 0x24001004)
T51F8 004:928.792   Data:  00 00 00 00
T51F8 004:928.796 - 0.014ms returns 4 (0x4)
T51F8 004:928.805 JLINK_ReadMemEx(0x240000C7, 0x6 Bytes, Flags = 0x02000000)
T51F8 004:928.809    -- Read from C cache (6 bytes @ 0x240000C7)
T51F8 004:928.813   Data:  00 00 00 00 00 00
T51F8 004:928.817 - 0.011ms returns 6 (0x6)
T51F8 004:928.825 JLINK_ReadMemEx(0x240000E0, 0x4 Bytes, Flags = 0x02000000)
T51F8 004:928.828    -- Read from C cache (4 bytes @ 0x240000E0)
T51F8 004:928.832   Data:  00 00 00 00
T51F8 004:928.836 - 0.011ms returns 4 (0x4)
T51F8 004:928.841 JLINK_ReadMemEx(0x24001028, 0x4 Bytes, Flags = 0x02000000)
T51F8 004:928.844    -- Read from C cache (4 bytes @ 0x24001028)
T51F8 004:928.848   Data:  00 00 00 00
T51F8 004:928.852 - 0.011ms returns 4 (0x4)
T0D68 019:066.796 JLINK_ReadMemEx(0x0800046C, 0x2 Bytes, Flags = 0x02000000)
T0D68 019:066.880   CPU_ReadMem(64 bytes @ 0x08000440)
T0D68 019:067.616    -- Updating C cache (64 bytes @ 0x08000440)
T0D68 019:067.652    -- Read from C cache (2 bytes @ 0x0800046C)
T0D68 019:067.666   Data:  0A 48
T0D68 019:067.680 - 0.884ms returns 2 (0x2)
T0D68 019:067.696 JLINK_HasError()
T0D68 019:067.708 JLINK_HasError()
T0D68 019:067.718 JLINK_Go()
T0D68 019:068.210   CPU_ReadMem(4 bytes @ 0xE0001000)
T0D68 019:068.704   CPU_WriteMem(4 bytes @ 0xE0002008)
T0D68 019:068.740   CPU_WriteMem(4 bytes @ 0xE000200C)
T0D68 019:068.750   CPU_WriteMem(4 bytes @ 0xE0002010)
T0D68 019:068.760   CPU_WriteMem(4 bytes @ 0xE0002014)
T0D68 019:068.770   CPU_WriteMem(4 bytes @ 0xE0002018)
T0D68 019:068.780   CPU_WriteMem(4 bytes @ 0xE000201C)
T0D68 019:068.790   CPU_WriteMem(4 bytes @ 0xE0002020)
T0D68 019:068.800   CPU_WriteMem(4 bytes @ 0xE0002024)
T0D68 019:070.274   CPU_WriteMem(4 bytes @ 0xE0001004)
T0D68 019:072.738   Memory map 'after startup completion point' is active
T0D68 019:072.756 - 5.035ms 
T0D68 019:173.836 JLINK_HasError()
T0D68 019:173.916 JLINK_IsHalted()
T0D68 019:174.364 - 0.446ms returns FALSE
T0D68 019:274.564 JLINK_HasError()
T0D68 019:274.676 JLINK_IsHalted()
T0D68 019:275.188 - 0.509ms returns FALSE
T0D68 019:375.892 JLINK_HasError()
T0D68 019:376.612 JLINK_IsHalted()
T0D68 019:377.038 - 0.423ms returns FALSE
T0D68 019:477.304 JLINK_HasError()
T0D68 019:477.348 JLINK_IsHalted()
T0D68 019:477.642 - 0.292ms returns FALSE
T0D68 019:578.938 JLINK_HasError()
T0D68 019:578.962 JLINK_IsHalted()
T0D68 019:579.614 - 0.653ms returns FALSE
T0D68 019:680.676 JLINK_HasError()
T0D68 019:680.706 JLINK_HasError()
T0D68 019:680.710 JLINK_ReadMemU32(0xE0001004, 0x1 Items)
T0D68 019:680.724   CPU_ReadMem(4 bytes @ 0xE0001004)
T0D68 019:681.012   Data:  3D C2 F4 13
T0D68 019:681.028   Debug reg: DWT_CYCCNT
T0D68 019:681.032 - 0.321ms returns 1 (0x1)
T51F8 019:681.268 JLINK_ReadMemEx(0x240000C4, 0x1 Bytes, Flags = 0x02000000)
T51F8 019:681.282   CPU_ReadMem(1 bytes @ 0x240000C4)
T51F8 019:681.738   Data:  00
T51F8 019:681.748 - 0.481ms returns 1 (0x1)
T51F8 019:681.766 JLINK_ReadMemEx(0x2400100C, 0x4 Bytes, Flags = 0x02000000)
T51F8 019:681.772   CPU_ReadMem(4 bytes @ 0x2400100C)
T51F8 019:682.044   Data:  36 1D D1 3E
T51F8 019:682.056 - 0.289ms returns 4 (0x4)
T51F8 019:684.220 JLINK_ReadMemEx(0x24001004, 0x4 Bytes, Flags = 0x02000000)
T51F8 019:684.234   CPU_ReadMem(4 bytes @ 0x24001004)
T51F8 019:684.858   Data:  22 16 F1 3D
T51F8 019:684.868 - 0.648ms returns 4 (0x4)
T51F8 019:686.334 JLINK_ReadMemEx(0x240000C7, 0x6 Bytes, Flags = 0x02000000)
T51F8 019:686.346   CPU_ReadMem(6 bytes @ 0x240000C7)
T51F8 019:686.916   Data:  00 00 00 00 00 00
T51F8 019:686.928 - 0.593ms returns 6 (0x6)
T51F8 019:686.944 JLINK_ReadMemEx(0x240000E0, 0x4 Bytes, Flags = 0x02000000)
T51F8 019:686.950   CPU_ReadMem(4 bytes @ 0x240000E0)
T51F8 019:687.328   Data:  00 80 BA 43
T51F8 019:687.340 - 0.395ms returns 4 (0x4)
T51F8 019:687.360 JLINK_ReadMemEx(0x24001028, 0x4 Bytes, Flags = 0x02000000)
T51F8 019:687.368   CPU_ReadMem(4 bytes @ 0x24001028)
T51F8 019:687.620   Data:  00 80 5D 44
T51F8 019:687.630 - 0.270ms returns 4 (0x4)
T0D68 019:687.730 JLINK_IsHalted()
T0D68 019:687.998 - 0.267ms returns FALSE
T0D68 019:789.130 JLINK_HasError()
T0D68 019:789.172 JLINK_IsHalted()
T0D68 019:789.482 - 0.307ms returns FALSE
T0D68 019:890.526 JLINK_HasError()
T0D68 019:890.554 JLINK_IsHalted()
T0D68 019:890.858 - 0.304ms returns FALSE
T0D68 019:991.494 JLINK_HasError()
T0D68 019:991.556 JLINK_IsHalted()
T0D68 019:991.806 - 0.249ms returns FALSE
T0D68 020:092.770 JLINK_HasError()
T0D68 020:092.828 JLINK_IsHalted()
T0D68 020:093.146 - 0.317ms returns FALSE
T0D68 020:194.254 JLINK_HasError()
T0D68 020:194.330 JLINK_HasError()
T0D68 020:194.334 JLINK_ReadMemU32(0xE0001004, 0x1 Items)
T0D68 020:194.348   Data:  3D C2 F4 13
T0D68 020:194.352   Debug reg: DWT_CYCCNT
T0D68 020:194.356 - 0.022ms returns 1 (0x1)
T51F8 020:194.480 JLINK_ReadMemEx(0x240000C4, 0x1 Bytes, Flags = 0x02000000)
T51F8 020:194.486   CPU_ReadMem(1 bytes @ 0x240000C4)
T51F8 020:194.820   Data:  00
T51F8 020:194.832 - 0.352ms returns 1 (0x1)
T51F8 020:194.852 JLINK_ReadMemEx(0x2400100C, 0x4 Bytes, Flags = 0x02000000)
T51F8 020:194.860   CPU_ReadMem(4 bytes @ 0x2400100C)
T51F8 020:195.314   Data:  DB 33 1B 3F
T51F8 020:195.324 - 0.471ms returns 4 (0x4)
T51F8 020:198.416 JLINK_ReadMemEx(0x24001004, 0x4 Bytes, Flags = 0x02000000)
T51F8 020:198.428   CPU_ReadMem(4 bytes @ 0x24001004)
T51F8 020:198.726   Data:  36 E4 DF 3D
T51F8 020:198.738 - 0.321ms returns 4 (0x4)
T51F8 020:202.550 JLINK_ReadMemEx(0x240000C7, 0x6 Bytes, Flags = 0x02000000)
T51F8 020:202.564   CPU_ReadMem(6 bytes @ 0x240000C7)
T51F8 020:202.956   Data:  00 00 00 00 00 00
T51F8 020:202.968 - 0.417ms returns 6 (0x6)
T51F8 020:202.984 JLINK_ReadMemEx(0x240000E0, 0x4 Bytes, Flags = 0x02000000)
T51F8 020:202.990   CPU_ReadMem(4 bytes @ 0x240000E0)
T51F8 020:203.276   Data:  00 00 BF 43
T51F8 020:203.286 - 0.302ms returns 4 (0x4)
T51F8 020:203.308 JLINK_ReadMemEx(0x24001028, 0x4 Bytes, Flags = 0x02000000)
T51F8 020:203.314   CPU_ReadMem(4 bytes @ 0x24001028)
T51F8 020:203.580   Data:  00 80 5C 44
T51F8 020:203.592 - 0.284ms returns 4 (0x4)
T0D68 020:203.696 JLINK_IsHalted()
T0D68 020:203.942 - 0.245ms returns FALSE
T0D68 020:304.308 JLINK_HasError()
T0D68 020:304.340 JLINK_IsHalted()
T0D68 020:304.622 - 0.281ms returns FALSE
T0D68 020:405.420 JLINK_HasError()
T0D68 020:405.446 JLINK_IsHalted()
T0D68 020:405.716 - 0.268ms returns FALSE
T0D68 020:505.884 JLINK_HasError()
T0D68 020:505.932 JLINK_IsHalted()
T0D68 020:506.294 - 0.361ms returns FALSE
T0D68 020:607.530 JLINK_HasError()
T0D68 020:607.556 JLINK_IsHalted()
T0D68 020:607.804 - 0.249ms returns FALSE
T0D68 020:708.216 JLINK_HasError()
T0D68 020:708.284 JLINK_IsHalted()
T0D68 020:708.588 - 0.303ms returns FALSE
T0D68 020:808.754 JLINK_HasError()
T0D68 020:808.832 JLINK_HasError()
T0D68 020:808.852 JLINK_ReadMemU32(0xE0001004, 0x1 Items)
T0D68 020:808.876   Data:  3D C2 F4 13
T0D68 020:808.882   Debug reg: DWT_CYCCNT
T0D68 020:808.886 - 0.036ms returns 1 (0x1)
T51F8 020:808.956 JLINK_ReadMemEx(0x240000C4, 0x1 Bytes, Flags = 0x02000000)
T51F8 020:808.964   CPU_ReadMem(1 bytes @ 0x240000C4)
T51F8 020:809.268   Data:  00
T51F8 020:809.280 - 0.322ms returns 1 (0x1)
T51F8 020:809.296 JLINK_ReadMemEx(0x2400100C, 0x4 Bytes, Flags = 0x02000000)
T51F8 020:809.302   CPU_ReadMem(4 bytes @ 0x2400100C)
T51F8 020:809.598   Data:  2D 60 82 3D
T51F8 020:809.610 - 0.312ms returns 4 (0x4)
T51F8 020:812.628 JLINK_ReadMemEx(0x24001004, 0x4 Bytes, Flags = 0x02000000)
T51F8 020:812.640   CPU_ReadMem(4 bytes @ 0x24001004)
T51F8 020:812.908   Data:  7C D5 EA 3D
T51F8 020:812.916 - 0.290ms returns 4 (0x4)
T51F8 020:816.076 JLINK_ReadMemEx(0x240000C7, 0x6 Bytes, Flags = 0x02000000)
T51F8 020:816.088   CPU_ReadMem(6 bytes @ 0x240000C7)
T51F8 020:816.668   Data:  00 00 00 00 00 00
T51F8 020:816.680 - 0.603ms returns 6 (0x6)
T51F8 020:816.698 JLINK_ReadMemEx(0x240000E0, 0x4 Bytes, Flags = 0x02000000)
T51F8 020:816.708   CPU_ReadMem(4 bytes @ 0x240000E0)
T51F8 020:816.966   Data:  00 80 BD 43
T51F8 020:816.978 - 0.279ms returns 4 (0x4)
T51F8 020:816.998 JLINK_ReadMemEx(0x24001028, 0x4 Bytes, Flags = 0x02000000)
T51F8 020:817.004   CPU_ReadMem(4 bytes @ 0x24001028)
T51F8 020:817.300   Data:  00 00 5F 44
T51F8 020:817.310 - 0.310ms returns 4 (0x4)
T0D68 020:817.476 JLINK_IsHalted()
T0D68 020:817.762 - 0.284ms returns FALSE
T0D68 020:918.640 JLINK_HasError()
T0D68 020:918.670 JLINK_IsHalted()
T0D68 020:918.944 - 0.273ms returns FALSE
T0D68 021:019.650 JLINK_HasError()
T0D68 021:019.692 JLINK_IsHalted()
T0D68 021:020.056 - 0.363ms returns FALSE
T0D68 021:120.332 JLINK_HasError()
T0D68 021:120.366 JLINK_IsHalted()
T0D68 021:120.650 - 0.282ms returns FALSE
T0D68 021:220.800 JLINK_HasError()
